EXPLAIN
TAG	EISPOT
TITLE	LABEL	Potentiostatic EIS	Test Identifier
DATE	LABEL	1/16/2024	Date
TIME	LABEL	11:49:53	Time
NOTES	NOTES	1	Notes...
	
PSTAT	PSTAT	REF3000-09117	Potentiostat
VDC	POTEN	1.20000E+000	F	DC Voltage (V)
FREQINIT	QUANT	1.00000E+005	Initial Freq. (Hz)
FREQFINAL	QUANT	1.00000E-001	Final Freq. (Hz)
PTSPERDEC	QUANT	1.00000E+001	Points/decade
VAC	QUANT	1.00000E+001	AC Voltage (mV rms)
AREA	QUANT	1.00000E+000	Sample Area (cm^2)
SPEED	SELECTOR	1	Optimize for:
ZGUESS	QUANT	1.00000E+002	Estimated Z (ohms)
EOC	QUANT	1.386029	Open Circuit (V)
SEQUENCER	TOGGLE	TRUE	Run as Sequence
PSTATMODEL	IQUANT	5	Pstat Model
PSTATSECTION	LABEL	REF3000-09117	Pstat Section
PSTATSERIALNO	LABEL	09117	Pstat Serial Number
CTRLMODE	IQUANT	1	Control Mode
ELECTROMETER	IQUANT	0	RE=0 or CS=1
IESTAB	IQUANT	0	I/E Stability
CASPEED	IQUANT	3	Control Amp Speed
CONVENTION	IQUANT	1	Current Convention
ICHRANGE	IQUANT	2	Ich Range
ICHRANGEMODE	TOGGLE	F	Ich Auto Range
ICHOFFSETENABLE	TOGGLE	T	Ich Offset Enable
ICHOFFSET	QUANT	0	Ich Offset (V)
ICHFILTER	IQUANT	3	Ich Filter
VCHRANGE	IQUANT	2	Vch Range
VCHRANGEMODE	TOGGLE	F	Vch Auto Range
VCHOFFSETENABLE	TOGGLE	T	Vch Offset Enable
VCHOFFSET	QUANT	0	Vch Offset (V)
VCHFILTER	IQUANT	3	Vch Filter
ACHRANGE	IQUANT	2	Ach Range
ACHOFFSETENABLE	TOGGLE	F	Ach Offset Enable
ACHOFFSET	QUANT	0	Ach Offset (V)
ACHFILTER	IQUANT	1	Ach Filter
IERANGELOWERLIMIT	IQUANT	2	I/E Range Lower Limit
IERANGEMODE	TOGGLE	F	I/E AutoRange
IERANGE	IQUANT	11	I/E Range
POSFEEDENABLE	TOGGLE	F	Positive Feedback IR Comp
POSFEEDRESISTANCE	QUANT	0	Positive Feedback Resistance (ohm)
ACHSELECT	IQUANT	0	Ach Select
SENSECABLEID	IQUANT	12	Sense Cable ID
PWRCABLEID	IQUANT	13	Power Cable ID
DCCALDATE	LABEL	3/13/2023	DC Calibration Date
ACCALDATE	LABEL	3/13/2023	AC Calibration Date
THERMOSELECT	IQUANT	1	Thermo Select
FRAMEWORKVERSION	QUANT	7.07	Framework Version
INSTRUMENTVERSION	LABEL	4.36	Instrument Version
COMPLIANCEVOLTAGE	IQUANT	0	Compliance Voltage
ZCURVE	TABLE
	Pt	Time	Freq	Zreal	Zimag	Zsig	Zmod	Zphz	Idc	Vdc	IERange
	#	s	Hz	ohm	ohm	V	ohm	°	A	V	#
	0	3	100078.1	20.65169	-2.711746	1	20.82897	-7.480634	-0.0001563	1.197666	9
	1	4	79453.13	20.90027	-3.055162	1	21.12239	-8.316486	-0.0001256	1.197642	9
	2	6	63140.62	21.19183	-3.481926	1	21.47598	-9.330621	-0.0001054	1.197689	9
	3	7	50203.12	21.53943	-3.981519	1	21.90433	-10.47279	-9.195325E-005	1.197697	9
	4	9	39890.62	21.9621	-4.564147	1	22.43134	-11.74006	-8.386933E-005	1.197624	9
	5	10	31640.63	22.4709	-5.247381	1	23.07545	-13.14411	-7.416249E-005	1.197679	9
	6	12	25171.88	23.07471	-6.01779	1	23.84651	-14.61692	-6.795835E-005	1.197662	9
	7	13	20015.62	23.80383	-6.893403	1	24.78188	-16.1506	-6.392782E-005	1.197629	9
	8	15	15890.62	24.68397	-7.866441	1	25.90713	-17.67636	-5.858567E-005	1.197696	9
	9	16	12609.37	25.73134	-8.936891	1	27.23912	-19.1529	-5.450554E-005	1.197689	9
	10	17	10078.13	26.91301	-10.05354	1	28.72949	-20.48352	-5.129841E-005	1.197691	9
	11	19	8015.625	28.31319	-11.26767	1	30.47289	-21.70084	-4.826196E-005	1.197662	9
	12	21	6328.125	29.97413	-12.58887	1	32.51043	-22.78197	-4.557344E-005	1.197675	9
	13	22	5015.625	31.81029	-13.93076	1	34.72694	-23.65017	-4.470148E-005	1.197682	9
	14	23	3984.375	33.85521	-15.30152	1	37.15255	-24.32151	-4.168095E-005	1.197651	9
	15	25	3170.956	36.07931	-16.68329	1	39.74983	-24.81611	-4.230089E-005	1.197605	9
	16	26	2527.573	38.4841	-18.12951	1	42.54062	-25.2247	-3.806866E-005	1.197685	9
	17	27	1976.103	41.31501	-19.72756	1	45.78326	-25.52408	-3.742137E-005	1.197681	9
	18	29	1577.524	44.14412	-21.24944	1	48.99226	-25.70454	-3.659057E-005	1.197621	9
	19	30	1265.625	47.08862	-22.8107	1	52.32272	-25.8465	-3.636665E-005	1.197624	9
	20	32	998.264	50.56996	-24.60987	1	56.24026	-25.94987	-3.263418E-005	1.197661	9
	21	33	796.875	54.1706	-26.39805	1	60.26036	-25.98058	-3.420594E-005	1.197625	9
	22	35	627.7902	58.39864	-28.33688	1	64.91055	-25.88414	-3.191624E-005	1.197621	9
	23	36	505.5147	62.67392	-30.12954	1	69.53999	-25.67521	-3.044767E-005	1.197687	9
	24	37	397.9953	67.91596	-31.97569	1	75.06679	-25.21164	-2.949679E-005	1.197689	9
	25	39	315.5048	73.54913	-33.48651	1	80.81349	-24.47951	-2.877826E-005	1.197687	9
	26	40	252.4038	79.40736	-34.48727	1	86.57309	-23.4757	-2.800422E-005	1.197686	9
	27	42	198.6229	86.19689	-34.97346	1	93.02176	-22.08433	-2.691645E-005	1.197718	8
	28	43	158.3615	92.49578	-34.59836	1	98.7548	-20.50848	-2.627324E-005	1.197714	8
	29	44	125.558	98.7066	-33.48285	1	104.2309	-18.73776	-2.557944E-005	1.197717	8
	30	46	100.4464	104.1945	-31.84777	1	108.9531	-16.99613	-2.49514E-005	1.197712	8
	31	47	79.00281	109.4231	-29.69816	1	113.3816	-15.18467	-2.431699E-005	1.197711	8
	32	49	63.3446	113.5587	-27.61357	1	116.8678	-13.66711	-2.362666E-005	1.197706	8
	33	50	49.86702	117.3517	-25.42871	1	120.0752	-12.22629	-2.318477E-005	1.197702	8
	34	52	39.72458	120.4336	-23.6041	1	122.7249	-11.08899	-2.232327E-005	1.197711	8
	35	53	31.6723	123.0323	-22.1096	1	125.0031	-10.18764	-2.188823E-005	1.197706	8
	36	55	24.93351	125.426	-20.94573	1	127.1629	-9.480719	-2.123291E-005	1.197707	8
	37	56	19.86229	127.392	-20.29954	1	128.9991	-9.053798	-2.011884E-005	1.197706	8
	38	58	15.83615	129.4222	-20.07194	1	130.9695	-8.815702	-2.072062E-005	1.197707	8
	39	59	12.40079	131.5761	-20.19095	1	133.1163	-8.724241	-2.150095E-005	1.197706	8
	40	60	9.93114	133.2503	-21.03666	1	134.9006	-8.971427	-1.965813E-005	1.197707	8
	41	62	7.944915	135.2931	-22.21945	1	137.1055	-9.326543	-1.952531E-005	1.197705	8
	42	64	6.317385	137.2862	-24.15686	1	139.3953	-9.9796	-1.980753E-005	1.197716	8
	43	65	5.008013	139.9204	-26.38465	1	142.3863	-10.67881	-1.870821E-005	1.197701	8
	44	68	3.945707	142.5583	-29.23939	1	145.526	-11.59089	-1.808487E-005	1.197707	8
	45	70	3.158693	145.6292	-32.76267	1	149.2691	-12.67892	-1.660587E-005	1.197711	8
	46	73	2.504006	149.4894	-36.77145	1	153.9455	-13.81928	-1.762363E-005	1.197719	8
	47	76	1.998082	152.977	-41.36205	1	158.4701	-15.12991	-1.575837E-005	1.1977	8
	48	79	1.584686	157.9848	-47.04989	1	164.842	-16.58421	-1.60727E-005	1.197708	8
	49	82	1.266892	162.6068	-53.40163	1	171.1512	-18.18067	-1.416746E-005	1.197699	8
	50	87	0.999041	169.0953	-61.56736	1	179.9549	-20.00649	-1.496323E-005	1.197726	8
	51	92	0.7923428	176.3356	-70.03117	1	189.733	-21.66036	-1.420495E-005	1.197772	8
	52	98	0.633446	183.7881	-79.76505	1	200.351	-23.46111	-1.317168E-005	1.197774	8
	53	105	0.5040323	192.5178	-91.18955	1	213.0226	-25.34542	-1.204122E-005	1.197775	8
	54	116	0.400641	202.8173	-104.5128	1	228.1618	-27.26228	-1.109834E-005	1.197775	8
	55	127	0.316723	214.7393	-120.1891	1	246.0861	-29.23565	-1.015808E-005	1.197772	8
	56	141	0.2520161	228.0242	-137.8341	1	266.4456	-31.15175	-9.190934E-006	1.197773	8
	57	158	0.2003205	243.2625	-158.4206	1	290.2994	-33.0735	-8.227782E-006	1.197776	8
	58	179	0.1588983	260.9366	-182.6036	1	318.4839	-34.98436	-7.305442E-006	1.197776	8
	59	204	0.1260081	281.2746	-210.9788	1	351.607	-36.87287	-6.529916E-006	1.19777	8
	60	234	0.1001603	304.6823	-244.2927	1	390.5256	-38.72246	-5.968904E-006	1.19777	8
