EXPLAIN
TAG	EISPOT
TITLE	LABEL	Potentiostatic EIS	Test Identifier
DATE	LABEL	1/19/2024	Date
TIME	LABEL	2:34:48	Time
NOTES	NOTES	1	Notes...
	
PSTAT	PSTAT	REF3000-09117	Potentiostat
VDC	POTEN	1.00000E-001	F	DC Voltage (V)
FREQINIT	QUANT	1.00000E+005	Initial Freq. (Hz)
FREQFINAL	QUANT	1.00000E-001	Final Freq. (Hz)
PTSPERDEC	QUANT	1.00000E+001	Points/decade
VAC	QUANT	1.00000E+001	AC Voltage (mV rms)
AREA	QUANT	1.00000E+000	Sample Area (cm^2)
SPEED	SELECTOR	1	Optimize for:
ZGUESS	QUANT	1.00000E+002	Estimated Z (ohms)
EOC	QUANT	0.3427933	Open Circuit (V)
SEQUENCER	TOGGLE	TRUE	Run as Sequence
PSTATMODEL	IQUANT	5	Pstat Model
PSTATSECTION	LABEL	REF3000-09117	Pstat Section
PSTATSERIALNO	LABEL	09117	Pstat Serial Number
CTRLMODE	IQUANT	1	Control Mode
ELECTROMETER	IQUANT	0	RE=0 or CS=1
IESTAB	IQUANT	0	I/E Stability
CASPEED	IQUANT	3	Control Amp Speed
CONVENTION	IQUANT	1	Current Convention
ICHRANGE	IQUANT	2	Ich Range
ICHRANGEMODE	TOGGLE	F	Ich Auto Range
ICHOFFSETENABLE	TOGGLE	T	Ich Offset Enable
ICHOFFSET	QUANT	0	Ich Offset (V)
ICHFILTER	IQUANT	3	Ich Filter
VCHRANGE	IQUANT	2	Vch Range
VCHRANGEMODE	TOGGLE	F	Vch Auto Range
VCHOFFSETENABLE	TOGGLE	T	Vch Offset Enable
VCHOFFSET	QUANT	0	Vch Offset (V)
VCHFILTER	IQUANT	3	Vch Filter
ACHRANGE	IQUANT	2	Ach Range
ACHOFFSETENABLE	TOGGLE	F	Ach Offset Enable
ACHOFFSET	QUANT	0	Ach Offset (V)
ACHFILTER	IQUANT	1	Ach Filter
IERANGELOWERLIMIT	IQUANT	2	I/E Range Lower Limit
IERANGEMODE	TOGGLE	F	I/E AutoRange
IERANGE	IQUANT	11	I/E Range
POSFEEDENABLE	TOGGLE	F	Positive Feedback IR Comp
POSFEEDRESISTANCE	QUANT	0	Positive Feedback Resistance (ohm)
ACHSELECT	IQUANT	0	Ach Select
SENSECABLEID	IQUANT	12	Sense Cable ID
PWRCABLEID	IQUANT	13	Power Cable ID
DCCALDATE	LABEL	3/13/2023	DC Calibration Date
ACCALDATE	LABEL	3/13/2023	AC Calibration Date
THERMOSELECT	IQUANT	1	Thermo Select
FRAMEWORKVERSION	QUANT	7.07	Framework Version
INSTRUMENTVERSION	LABEL	4.36	Instrument Version
COMPLIANCEVOLTAGE	IQUANT	0	Compliance Voltage
ZCURVE	TABLE
	Pt	Time	Freq	Zreal	Zimag	Zsig	Zmod	Zphz	Idc	Vdc	IERange
	#	s	Hz	ohm	ohm	V	ohm	°	A	V	#
	0	4	100078.1	22.65789	-3.694495	1	22.95712	-9.260896	-2.218841E-006	0.0994711	9
	1	5	79453.13	22.9761	-4.152208	1	23.34828	-10.24385	-3.24656E-006	0.0994033	9
	2	7	63140.62	23.34575	-4.72686	1	23.81947	-11.44605	-3.143291E-006	0.0994068	9
	3	8	50203.12	23.77226	-5.417413	1	24.38173	-12.83778	-2.076276E-006	0.0994626	9
	4	9	39890.62	24.27804	-6.236584	1	25.06628	-14.40674	-2.124238E-006	0.09946	9
	5	11	31640.63	24.87457	-7.222697	1	25.90196	-16.19143	-2.1965E-006	0.0994394	9
	6	12	25171.88	25.57172	-8.369986	1	26.90668	-18.124	-2.094866E-006	0.0994695	9
	7	14	20015.62	26.40384	-9.71618	1	28.1348	-20.2028	-2.865274E-006	0.0994679	9
	8	15	15890.62	27.40577	-11.29783	1	29.64317	-22.40355	-2.791763E-006	0.099472	9
	9	16	12609.37	28.61106	-13.12259	1	31.47689	-24.63877	-2.214231E-006	0.0994398	9
	10	18	10078.13	29.99156	-15.14766	1	33.59978	-26.7967	-2.115255E-006	0.0994428	9
	11	19	8015.625	31.66965	-17.50197	1	36.18406	-28.92686	-3.992055E-006	0.0994343	9
	12	21	6328.125	33.73296	-20.28587	1	39.36279	-31.02129	-2.454055E-006	0.0994808	9
	13	22	5015.625	36.13079	-23.35976	1	43.02455	-32.88401	-3.661848E-006	0.0994037	9
	14	23	3984.375	38.92192	-26.80116	1	47.25694	-34.55083	-2.135801E-006	0.0994516	9
	15	25	3170.956	42.15242	-30.59303	1	52.08416	-35.97108	-4.406008E-006	0.0993991	9
	16	26	2527.573	45.94093	-34.83507	1	57.65459	-37.1715	-2.21227E-006	0.0994745	9
	17	28	1976.103	50.72993	-39.88224	1	64.52999	-38.17329	-2.082405E-006	0.0994585	9
	18	29	1577.524	55.80787	-45.008	1	71.69545	-38.88552	-2.057119E-006	0.099453	9
	19	30	1265.625	61.7051	-50.61873	1	79.81087	-39.36316	-2.775785E-006	0.0994293	8
	20	32	998.264	68.93607	-57.07382	1	89.49638	-39.62217	-2.884485E-006	0.0994227	8
	21	33	796.875	76.88705	-63.70152	1	99.8474	-39.64201	-2.997191E-006	0.0994266	8
	22	35	627.7902	86.71362	-71.18141	1	112.1875	-39.38186	-2.877291E-006	0.0994698	8
	23	36	505.5147	97.1146	-78.33428	1	124.7698	-38.89022	-2.776005E-006	0.0994872	8
	24	37	397.9953	110.4918	-86.229	1	140.1566	-37.96886	-2.790155E-006	0.0994839	8
	25	39	315.5048	125.6279	-93.50748	1	156.6079	-36.66108	-2.780588E-006	0.0994846	8
	26	40	252.4038	142.2312	-99.5499	1	173.6085	-34.9888	-2.800892E-006	0.0994826	8
	27	42	198.6229	162.0399	-104.215	1	192.6596	-32.74686	-2.797696E-006	0.0994832	8
	28	43	158.3615	182.1396	-106.1887	1	210.8338	-30.2425	-2.812473E-006	0.099479	8
	29	44	125.558	203.2119	-105.2531	1	228.8521	-27.3818	-2.784608E-006	0.0994853	8
	30	46	100.4464	222.9334	-101.4747	1	244.9417	-24.47405	-2.815374E-006	0.0994786	8
	31	47	79.00281	242.4021	-94.59179	1	260.2045	-21.31706	-2.809012E-006	0.0994812	8
	32	49	63.3446	257.9917	-86.27673	1	272.0357	-18.49079	-2.829959E-006	0.0994792	8
	33	50	49.86702	272.1283	-76.36766	1	282.6408	-15.67577	-2.857243E-006	0.0994736	8
	34	52	39.72458	282.7	-66.60555	1	290.4403	-13.2574	-2.77628E-006	0.0994754	8
	35	53	31.6723	290.8922	-57.21871	1	296.4662	-11.12806	-2.730349E-006	0.0994761	8
	36	54	24.93351	297.4333	-48.30353	1	301.3301	-9.224372	-2.682036E-006	0.0994725	8
	37	56	19.86229	302.0799	-40.83303	1	304.8271	-7.69818	-2.666067E-006	0.0994741	8
	38	57	15.83615	305.4333	-34.59476	1	307.3862	-6.46204	-2.899992E-006	0.0994745	8
	39	58	12.40079	308.2086	-28.86216	1	309.557	-5.349856	-2.91545E-006	0.0994746	8
	40	60	9.93114	309.9305	-24.72088	1	310.9149	-4.560409	-2.814795E-006	0.0994811	8
	41	61	7.944915	311.4203	-21.38857	1	312.1539	-3.928946	-2.546143E-006	0.0994789	8
	42	63	6.317385	312.7125	-18.68318	1	313.2701	-3.419103	-2.608934E-006	0.0994725	8
	43	65	5.008013	313.7818	-16.80307	1	314.2314	-3.065271	-2.468565E-006	0.0994833	8
	44	67	3.945707	314.686	-15.51074	1	315.0681	-2.821801	-2.919204E-006	0.0994802	8
	45	69	3.158693	315.6773	-14.74228	1	316.0214	-2.673797	-2.50276E-006	0.0994885	8
	46	71	2.504006	316.5559	-14.3821	1	316.8825	-2.601332	-3.071205E-006	0.0994893	8
	47	74	1.998082	317.3744	-14.498	1	317.7054	-2.615514	-3.009552E-006	0.0994784	8
	48	77	1.584686	318.309	-15.4407	1	318.6832	-2.777157	-2.85574E-006	0.0995061	8
	49	81	1.266892	319.4629	-16.36843	1	319.8819	-2.933119	-3.119822E-006	0.0994812	8
	50	85	0.999041	320.6165	-17.96593	1	321.1194	-3.207247	-2.096306E-006	0.0995015	8
	51	89	0.7923428	322.3998	-20.18927	1	323.0313	-3.583287	-3.407335E-006	0.0995487	8
	52	95	0.633446	323.5771	-23.05242	1	324.3972	-4.075005	-3.087622E-006	0.0995522	8
	53	103	0.5040323	325.2666	-26.39216	1	326.3355	-4.638823	-3.014846E-006	0.0995519	8
	54	112	0.400641	327.2028	-30.42974	1	328.6147	-5.313204	-2.971433E-006	0.0995521	8
	55	123	0.316723	329.5203	-35.42316	1	331.4188	-6.135686	-2.956672E-006	0.0995521	8
	56	137	0.2520161	332.1523	-41.11126	1	334.6868	-7.055748	-2.928738E-006	0.0995508	8
	57	154	0.2003205	335.0961	-48.015	1	338.5186	-8.154251	-2.883689E-006	0.0995558	8
	58	175	0.1588983	338.5173	-56.26518	1	343.1613	-9.436899	-2.842502E-006	0.0995567	8
	59	200	0.1260081	342.863	-66.3339	1	349.2209	-10.94977	-3.050229E-006	0.0995568	8
	60	230	0.1001603	348.6834	-78.4817	1	357.4066	-12.68475	-3.580452E-006	0.0995571	8
